
T1F74 000:098 SEGGER J-Link V6.14b Log File (0001ms, 0042ms total)
T1F74 000:098 DLL Compiled: Mar  9 2017 08:46:04 (0001ms, 0042ms total)
T1F74 000:098 Logging started @ 2020-08-22 14:39 (0002ms, 0043ms total)
T1F74 000:100 JLINK_SetWarnOutHandler(...) (0000ms, 0043ms total)
T1F74 000:100 JLINK_OpenEx(...)
Firmware: J-Link V9 compiled May 17 2019 09:50:41
Hardware: V9.20WEBSRV Webserver running on local port 19080 (0016ms, 0059ms total)
T1F74 000:100   returns O.K. (0016ms, 0059ms total)
T1F74 000:116 JLINK_SetErrorOutHandler(...) (0001ms, 0060ms total)
T1F74 000:117 JLINK_ExecCommand("ProjectFile = "D:\桌面\十五届哈士奇\干簧管保命\有环岛\Project\mdk\JLinkSettings.ini"", ...). C:\Program Files (x86)\SEGGER\JLink_V614b\JLinkDevices.xml evaluated successfully.Device "MKV58F1M0XXX24" selected.  returns 0x00 (0240ms, 0300ms total)
T1F74 000:363 JLINK_ExecCommand("Device = MKV58F1M0xxx24", ...). Device "MKV58F1M0XXX24" selected.  returns 0x00 (0027ms, 0327ms total)
T1F74 000:391 JLINK_ExecCommand("DisableConnectionTimeout", ...).   returns 0x01 (0000ms, 0328ms total)
T1F74 000:391 JLINK_GetHardwareVersion()  returns 0x16760 (0000ms, 0328ms total)
T1F74 000:391 JLINK_GetDLLVersion()  returns 61402 (0001ms, 0329ms total)
T1F74 000:392 JLINK_GetFirmwareString(...) (0000ms, 0329ms total)
T1F74 000:415 JLINK_GetDLLVersion()  returns 61402 (0000ms, 0329ms total)
T1F74 000:415 JLINK_GetCompileDateTime() (0000ms, 0329ms total)
T1F74 000:423 JLINK_GetFirmwareString(...) (0000ms, 0329ms total)
T1F74 000:430 JLINK_GetHardwareVersion()  returns 0x16760 (0000ms, 0329ms total)
T1F74 000:444 JLINK_TIF_Select(JLINKARM_TIF_JTAG)  returns 0x00 (0001ms, 0330ms total)
T1F74 000:445 JLINK_SetSpeed(5000) (0000ms, 0330ms total)
T1F74 000:445 JLINK_GetIdData(...) >0x2F8 JTAG>TotalIRLen = 4, IRPrint = 0x01 >0x30 JTAG> >0x410 JTAG> >0x40 JTAG> >0x40 JTAG> >0x40 JTAG> >0x30 JTAG> >0x40 JTAG> >0x40 JTAG> >0x40 JTAG> >0x40 JTAG> >0x40 JTAG> >0x40 JTAG> >0x40 JTAG> >0x40 JTAG> >0x40 JTAG> >0x40 JTAG> >0x40 JTAG> >0x40 JTAG> >0x40 JTAG> >0x40 JTAG> >0x40 JTAG> >0x40 JTAG> >0x40 JTAG> >0x40 JTAG> >0x40 JTAG> >0x40 JTAG> >0x40 JTAG> >0x40 JTAG> >0x40 JTAG> >0x40 JTAG> >0x40 JTAG> >0x40 JTAG> >0x40 JTAG> >0x40 JTAG> >0x40 JTAG>
 >0x40 JTAG> >0x40 JTAG> >0x40 JTAG> >0x40 JTAG> >0x40 JTAG> >0x40 JTAG> >0x40 JTAG> >0x40 JTAG> >0x40 JTAG> >0x40 JTAG> >0x40 JTAG> >0x40 JTAG> >0x40 JTAG> >0x40 JTAG> >0x40 JTAG> >0x40 JTAG> >0x40 JTAG> >0x40 JTAG> >0x40 JTAG> >0x40 JTAG> >0x40 JTAG> >0x40 JTAG> >0x40 JTAG> >0x40 JTAG> >0x40 JTAG> >0x40 JTAG> >0x40 JTAG> >0x40 JTAG> >0x40 JTAG> >0x40 JTAG> >0x40 JTAG> >0x40 JTAG> >0x40 JTAG> >0x40 JTAG> >0x40 JTAG> >0x40 JTAG> >0x40 JTAG> >0x40 JTAG> >0x40 JTAG> >0x40 JTAG> >0x40 JTAG> >0x40 JTAG>
 >0x40 JTAG> >0x40 JTAG> >0x40 JTAG> >0x40 JTAG> >0x40 JTAG> >0x40 JTAG> >0x40 JTAG> >0x40 JTAG> >0x40 JTAG> >0x40 JTAG> >0x40 JTAG> >0x40 JTAG> >0x40 JTAG> >0x40 JTAG> >0x40 JTAG> >0x40 JTAG> >0x40 JTAG> >0x40 JTAG> >0x40 JTAG> >0x40 JTAG> >0x40 JTAG> >0x40 JTAG> >0x40 JTAG> >0x40 JTAG> >0x40 JTAG> >0x40 JTAG> >0x40 JTAG> >0x40 JTAG> >0x40 JTAG> >0x40 JTAG> >0x40 JTAG> >0x40 JTAG> >0x40 JTAG> >0x40 JTAG> >0x40 JTAG> >0x40 JTAG> >0x40 JTAG> >0x40 JTAG> >0x40 JTAG> >0x40 JTAG> >0x40 JTAG> >0x40 JTAG>
 >0x40 JTAG> >0x40 JTAG> >0x40 JTAG> >0x40 JTAG> >0x40 JTAG> >0x40 JTAG> >0x40 JTAG> >0x40 JTAG> >0x40 JTAG> >0x40 JTAG> >0x40 JTAG> >0x40 JTAG> >0x40 JTAG> >0x40 JTAG> >0x40 JTAG> >0x40 JTAG> >0x40 JTAG> >0x40 JTAG> >0x40 JTAG> >0x40 JTAG> >0x40 JTAG> >0x40 JTAG> >0x40 JTAG> >0x40 JTAG> >0x40 JTAG> >0x40 JTAG> >0x40 JTAG> >0x40 JTAG> >0x40 JTAG> >0x40 JTAG> >0x40 JTAG> >0x40 JTAG> >0x40 JTAG> >0x40 JTAG> >0x40 JTAG> >0x40 JTAG> >0x40 JTAG> >0x40 JTAG> >0x40 JTAG> >0x40 JTAG> >0x40 JTAG> >0x40 JTAG>
 >0x40 JTAG> >0x40 JTAG> >0x40 JTAG> >0x40 JTAG> >0x40 JTAG> >0x40 JTAG> >0x40 JTAG> >0x40 JTAG> >0x40 JTAG> >0x2F8 JTAG>TotalIRLen = 4, IRPrint = 0x01 >0x30 JTAG> >0x410 JTAG> >0x70 JTAG> >0x48 JTAG> >0x40 JTAG> >0x48 JTAG>AP-IDR: 0x64770001, Type: AHB-APAHB-AP ROM: 0xE00FD000 (Base addr. of first ROM table) >0x78 JTAG> >0x40 JTAG> >0x30 JTAG> >0x40 JTAG> >0x40 JTAG> >0x30 JTAG> >0x40 JTAG> >0x48 JTAG>Found Cortex-M7 r0p2, Little endian. -- CPU_ReadMem(4 bytes @ 0xE000EDF0)
 -- CPU_WriteMem(4 bytes @ 0xE000EDF0) -- CPU_ReadMem(4 bytes @ 0xE0002000)FPUnit: 8 code (BP) slots and 0 literal slots -- CPU_ReadMem(4 bytes @ 0xE000EDFC) -- CPU_WriteMem(4 bytes @ 0xE000EDFC) -- CPU_ReadMem(4 bytes @ 0xE0001000) -- CPU_WriteMem(4 bytes @ 0xE0001000) -- CPU_ReadMem(4 bytes @ 0xE000ED88) -- CPU_WriteMem(4 bytes @ 0xE000ED88) -- CPU_ReadMem(4 bytes @ 0xE000ED88) -- CPU_WriteMem(4 bytes @ 0xE000ED88)CoreSight components:ROMTbl 0 @ E00FD000 -- CPU_ReadMem(16 bytes @ 0xE00FD000)
 -- CPU_ReadMem(16 bytes @ 0xE00FEFF0) -- CPU_ReadMem(16 bytes @ 0xE00FEFE0)ROMTbl 0 [0]: 00001000, CID: B105100D, PID: 000BB4C8 ROM TableROMTbl 1 @ E00FE000 -- CPU_ReadMem(16 bytes @ 0xE00FE000) -- CPU_ReadMem(16 bytes @ 0xE00FFFF0) -- CPU_ReadMem(16 bytes @ 0xE00FFFE0)ROMTbl 1 [0]: 00001000, CID: B105100D, PID: 000BB4C7 ROM TableROMTbl 2 @ E00FF000 -- CPU_ReadMem(16 bytes @ 0xE00FF000) -- CPU_ReadMem(16 bytes @ 0xE000EFF0) -- CPU_ReadMem(16 bytes @ 0xE000EFE0)
ROMTbl 2 [0]: FFF0F000, CID: B105E00D, PID: 000BB00C SCS -- CPU_ReadMem(16 bytes @ 0xE0001FF0) -- CPU_ReadMem(16 bytes @ 0xE0001FE0)ROMTbl 2 [1]: FFF02000, CID: B105E00D, PID: 000BB002 DWT -- CPU_ReadMem(16 bytes @ 0xE0002FF0) -- CPU_ReadMem(16 bytes @ 0xE0002FE0)ROMTbl 2 [2]: FFF03000, CID: B105E00D, PID: 000BB00E FPB -- CPU_ReadMem(16 bytes @ 0xE0000FF0) -- CPU_ReadMem(16 bytes @ 0xE0000FE0)ROMTbl 2 [3]: FFF01000, CID: B105E00D, PID: 000BB001 ITM -- CPU_ReadMem(16 bytes @ 0xE00FF010)
 -- CPU_ReadMem(16 bytes @ 0xE0041FF0) -- CPU_ReadMem(16 bytes @ 0xE0041FE0)ROMTbl 1 [1]: FFF43000, CID: B105900D, PID: 001BB975 ETM-M7 -- CPU_ReadMem(16 bytes @ 0xE00FE010) -- CPU_ReadMem(16 bytes @ 0xE0040FF0) -- CPU_ReadMem(16 bytes @ 0xE0040FE0)ROMTbl 0 [1]: FFF43000, CID: B105900D, PID: 000BB9A9 TPIU-M7 -- CPU_ReadMem(16 bytes @ 0xE00FD010) -- CPU_ReadMem(4 bytes @ 0xE000ED78)Cache: Separate I- and D-cache. (0221ms, 0551ms total)
T1F74 000:445  -- CPU_WriteMem(4 bytes @ 0xE000ED84) -- CPU_ReadMem(4 bytes @ 0xE000ED80)I-Cache L1: 16 KB, 256 Sets, 32 Bytes/Line, 2-Way -- CPU_WriteMem(4 bytes @ 0xE000ED84) -- CPU_ReadMem(4 bytes @ 0xE000ED80)D-Cache L1: 8 KB, 64 Sets, 32 Bytes/Line, 4-Way ScanLen=4 NumDevices=1 aId[0]=0x5BA00477 aIrRead[0]=0 aScanLen[0]=0 aScanRead[0]=0 (0237ms, 0567ms total)
T1F74 000:682 JLINK_JTAG_GetDeviceID(DeviceIndex = 0)  returns 0x5BA00477 (0001ms, 0568ms total)
T1F74 000:683 JLINK_JTAG_GetDeviceInfo(DeviceIndex = 0)  returns 0x00 (0000ms, 0568ms total)
T1F74 000:683 JLINK_GetDLLVersion()  returns 61402 (0001ms, 0569ms total)
T1F74 000:684 JLINK_CORE_GetFound()  returns 0xE0100FF (0000ms, 0569ms total)
T1F74 000:684 JLINK_GetDebugInfo(0x100 = JLINKARM_ROM_TABLE_ADDR_INDEX) -- Value=0xE00FD000  returns 0x00 (0001ms, 0570ms total)
T1F74 000:692 JLINK_GetDebugInfo(0x100 = JLINKARM_ROM_TABLE_ADDR_INDEX) -- Value=0xE00FD000  returns 0x00 (0000ms, 0570ms total)
T1F74 000:692 JLINK_GetDebugInfo(0x101 = JLINKARM_DEBUG_INFO_ETM_ADDR_INDEX) -- Value=0xE0041000  returns 0x00 (0001ms, 0571ms total)
T1F74 000:693 JLINK_GetDebugInfo(0x102 = JLINKARM_DEBUG_INFO_MTB_ADDR_INDEX) -- Value=0x00000000  returns 0x00 (0000ms, 0571ms total)
T1F74 000:693 JLINK_GetDebugInfo(0x103 = JLINKARM_DEBUG_INFO_TPIU_ADDR_INDEX) -- Value=0xE0040000  returns 0x00 (0001ms, 0572ms total)
T1F74 000:694 JLINK_GetDebugInfo(0x104 = JLINKARM_DEBUG_INFO_ITM_ADDR_INDEX) -- Value=0xE0000000  returns 0x00 (0000ms, 0572ms total)
T1F74 000:694 JLINK_GetDebugInfo(0x105 = JLINKARM_DEBUG_INFO_DWT_ADDR_INDEX) -- Value=0xE0001000  returns 0x00 (0001ms, 0573ms total)
T1F74 000:695 JLINK_GetDebugInfo(0x106 = JLINKARM_DEBUG_INFO_FPB_ADDR_INDEX) -- Value=0xE0002000  returns 0x00 (0001ms, 0574ms total)
T1F74 000:696 JLINK_GetDebugInfo(0x107 = JLINKARM_DEBUG_INFO_NVIC_ADDR_INDEX) -- Value=0xE000E000  returns 0x00 (0000ms, 0574ms total)
T1F74 000:696 JLINK_GetDebugInfo(0x10C = JLINKARM_DEBUG_INFO_DBG_ADDR_INDEX) -- Value=0xE000EDF0  returns 0x00 (0000ms, 0574ms total)
T1F74 000:697 JLINK_ReadMemU32(0xE000ED00, 0x0001 Items, ...) -- CPU is running -- CPU_ReadMem(4 bytes @ 0xE000ED00) - Data: 72 C2 0F 41  returns 0x01 (0001ms, 0576ms total)
T1F74 000:698 JLINK_ReadMemU32(0xE000EDF0, 0x0001 Items, ...) -- CPU is running -- CPU_ReadMem(4 bytes @ 0xE000EDF0) - Data: 01 00 01 01  returns 0x01 (0001ms, 0577ms total)
T1F74 000:699 JLINK_SetResetType(JLINKARM_CM3_RESET_TYPE_NORMAL)  returns JLINKARM_CM3_RESET_TYPE_NORMAL (0000ms, 0577ms total)
T1F74 000:699 JLINK_Reset() -- CPU is running -- CPU_WriteMem(4 bytes @ 0xE000EDF0) -- CPU is running -- CPU_WriteMem(4 bytes @ 0xE000EDFC) -- CPU is running -- CPU_WriteMem(4 bytes @ 0xE000ED0C) -- CPU is running -- CPU_ReadMem(4 bytes @ 0xE000EDF0) -- CPU is running -- CPU_ReadMem(4 bytes @ 0xE000EDF0) -- CPU is running -- CPU_WriteMem(4 bytes @ 0xE000EDF0) -- CPU is running -- CPU_WriteMem(4 bytes @ 0xE000EDFC) -- CPU is running -- CPU_ReadMem(4 bytes @ 0xE000EDF0) >0x78 JTAG> >0x40 JTAG> >0x30 JTAG>
 >0x40 JTAG> >0x48 JTAG> >0x40 JTAG> -- CPU_WriteMem(4 bytes @ 0xE000EDFC) -- CPU_WriteMem(4 bytes @ 0xE0001028) -- CPU_WriteMem(4 bytes @ 0xE0001038) -- CPU_WriteMem(4 bytes @ 0xE0001048) -- CPU_WriteMem(4 bytes @ 0xE0001058) -- CPU_ReadMem(2 bytes @ 0x40052000) -- CPU_ReadMem(8 bytes @ 0x20000000) -- CPU_WriteMem(8 bytes @ 0x20000000) -- CPU_ReadMem(4 bytes @ 0xE0001000) -- CPU_WriteMem(8 bytes @ 0x20000000) -- CPU_WriteMem(4 bytes @ 0xE0002000) -- CPU_ReadMem(4 bytes @ 0xE000EDFC)
 -- CPU_ReadMem(4 bytes @ 0xE0001000) (0032ms, 0609ms total)
T1F74 000:731 JLINK_Halt()  returns 0x00 (0000ms, 0609ms total)
T1F74 000:732 JLINK_IsHalted()  returns TRUE (0000ms, 0609ms total)
T1F74 000:732 JLINK_ReadMemU32(0xE000EDF0, 0x0001 Items, ...) -- CPU_ReadMem(4 bytes @ 0xE000EDF0) - Data: 0B 00 03 00  returns 0x01 (0001ms, 0610ms total)
T1F74 000:733 JLINK_WriteU32(0xE000EDF0, 0xA05F0003) -- CPU_WriteMem(4 bytes @ 0xE000EDF0)  returns 0x00 (0001ms, 0611ms total)
T1F74 000:734 JLINK_WriteU32(0xE000EDFC, 0x01000000) -- CPU_WriteMem(4 bytes @ 0xE000EDFC)  returns 0x00 (0001ms, 0612ms total)
T1F74 000:761 JLINK_GetHWStatus(...)  returns 0x00 (0001ms, 0613ms total)
T1F74 000:781 JLINK_GetNumBPUnits(Type = 0xFFFFFF00)  returns 0x08 (0000ms, 0613ms total)
T1F74 000:781 JLINK_GetNumBPUnits(Type = 0xF0)  returns 0x2000 (0000ms, 0613ms total)
T1F74 000:782 JLINK_GetNumWPUnits()  returns 0x04 (0001ms, 0615ms total)
T1F74 000:803 JLINK_GetSpeed()  returns 0x1388 (0000ms, 0615ms total)
T1F74 000:816 JLINK_ReadMemU32(0xE000E004, 0x0001 Items, ...) -- CPU_ReadMem(4 bytes @ 0xE000E004) - Data: 03 00 00 00  returns 0x01 (0001ms, 0616ms total)
T1F74 000:817 JLINK_ReadMemU32(0xE000E004, 0x0001 Items, ...) -- CPU_ReadMem(4 bytes @ 0xE000E004) - Data: 03 00 00 00  returns 0x01 (0001ms, 0617ms total)
T1F74 000:818 JLINK_WriteMem(0xE0001000, 0x001C Bytes, ...) - Data: 01 00 00 00 00 00 00 00 00 00 00 00 00 00 00 00 ... -- CPU_WriteMem(28 bytes @ 0xE0001000)  returns 0x1C (0001ms, 0618ms total)
T1F74 000:820 JLINK_ReadMem (0xE0001000, 0x001C Bytes, ...) -- CPU_ReadMem(28 bytes @ 0xE0001000) - Data: 01 00 00 40 00 00 00 00 00 00 00 00 00 00 00 00 ...  returns 0x00 (0001ms, 0620ms total)
T1F74 000:821 JLINK_Halt()  returns 0x00 (0000ms, 0620ms total)
T1F74 000:821 JLINK_IsHalted()  returns TRUE (0000ms, 0620ms total)
T1F74 000:837 JLINK_WriteMem(0x20000000, 0x0590 Bytes, ...) - Data: 00 BE 0A E0 0D 78 2D 06 68 40 08 24 40 00 00 D3 ... -- CPU_WriteMem(1424 bytes @ 0x20000000)  returns 0x590 (0009ms, 0629ms total)
T1F74 000:846 JLINK_WriteReg(R0, 0x10000000)  returns 0x00 (0000ms, 0629ms total)
T1F74 000:846 JLINK_WriteReg(R1, 0x00B71B00)  returns 0x00 (0000ms, 0629ms total)
T1F74 000:846 JLINK_WriteReg(R2, 0x00000001)  returns 0x00 (0001ms, 0630ms total)
T1F74 000:847 JLINK_WriteReg(R3, 0x00000000)  returns 0x00 (0000ms, 0630ms total)
T1F74 000:847 JLINK_WriteReg(R4, 0x00000000)  returns 0x00 (0001ms, 0631ms total)
T1F74 000:848 JLINK_WriteReg(R5, 0x00000000)  returns 0x00 (0000ms, 0631ms total)
T1F74 000:848 JLINK_WriteReg(R6, 0x00000000)  returns 0x00 (0000ms, 0631ms total)
T1F74 000:848 JLINK_WriteReg(R7, 0x00000000)  returns 0x00 (0001ms, 0632ms total)
T1F74 000:849 JLINK_WriteReg(R8, 0x00000000)  returns 0x00 (0000ms, 0632ms total)
T1F74 000:849 JLINK_WriteReg(R9, 0x20000588)  returns 0x00 (0000ms, 0632ms total)
T1F74 000:849 JLINK_WriteReg(R10, 0x00000000)  returns 0x00 (0001ms, 0633ms total)
T1F74 000:850 JLINK_WriteReg(R11, 0x00000000)  returns 0x00 (0000ms, 0633ms total)
T1F74 000:850 JLINK_WriteReg(R12, 0x00000000)  returns 0x00 (0000ms, 0633ms total)
T1F74 000:850 JLINK_WriteReg(R13 (SP), 0x20001000)  returns 0x00 (0001ms, 0634ms total)
T1F74 000:851 JLINK_WriteReg(R14, 0x20000001)  returns 0x00 (0000ms, 0634ms total)
T1F74 000:851 JLINK_WriteReg(R15 (PC), 0x20000020)  returns 0x00 (0000ms, 0634ms total)
T1F74 000:851 JLINK_WriteReg(XPSR, 0x01000000)  returns 0x00 (0001ms, 0635ms total)
T1F74 000:852 JLINK_WriteReg(MSP, 0x20001000)  returns 0x00 (0000ms, 0635ms total)
T1F74 000:852 JLINK_WriteReg(PSP, 0x20001000)  returns 0x00 (0000ms, 0635ms total)
T1F74 000:852 JLINK_WriteReg(CFBP, 0x00000000)  returns 0x00 (0001ms, 0636ms total)
T1F74 000:853 JLINK_SetBPEx(Addr = 0x20000000, Type = 0xFFFFFFF2)  returns 0x00000001 (0000ms, 0636ms total)
T1F74 000:853 JLINK_Go() -- CPU_ReadMem(4 bytes @ 0xE0001000) -- CPU_WriteMem(4 bytes @ 0xE0002008) -- CPU_WriteMem(4 bytes @ 0xE000200C) -- CPU_WriteMem(4 bytes @ 0xE0002010) -- CPU_WriteMem(4 bytes @ 0xE0002014) -- CPU_WriteMem(4 bytes @ 0xE0002018) -- CPU_WriteMem(4 bytes @ 0xE000201C) -- CPU_WriteMem(4 bytes @ 0xE0002020) -- CPU_WriteMem(4 bytes @ 0xE0002024) -- CPU_WriteMem(4 bytes @ 0xE0001004) (0004ms, 0640ms total)
T1F74 000:858 JLINK_IsHalted()  returns TRUE (0002ms, 0643ms total)
T1F74 000:860 JLINK_ReadReg(R15 (PC))  returns 0x20000000 (0000ms, 0641ms total)
T1F74 000:860 JLINK_ClrBPEx(BPHandle = 0x00000001)  returns 0x00 (0001ms, 0642ms total)
T1F74 000:861 JLINK_ReadReg(R0)  returns 0x00000000 (0000ms, 0642ms total)
T1F74 000:862 JLINK_WriteReg(R0, 0x10000000)  returns 0x00 (0001ms, 0643ms total)
T1F74 000:863 JLINK_WriteReg(R1, 0x00002000)  returns 0x00 (0000ms, 0643ms total)
T1F74 000:863 JLINK_WriteReg(R2, 0x000000FF)  returns 0x00 (0000ms, 0643ms total)
T1F74 000:863 JLINK_WriteReg(R3, 0x00000000)  returns 0x00 (0001ms, 0644ms total)
T1F74 000:864 JLINK_WriteReg(R4, 0x00000000)  returns 0x00 (0000ms, 0644ms total)
T1F74 000:864 JLINK_WriteReg(R5, 0x00000000)  returns 0x00 (0000ms, 0644ms total)
T1F74 000:865 JLINK_WriteReg(R6, 0x00000000)  returns 0x00 (0000ms, 0645ms total)
T1F74 000:865 JLINK_WriteReg(R7, 0x00000000)  returns 0x00 (0000ms, 0645ms total)
T1F74 000:865 JLINK_WriteReg(R8, 0x00000000)  returns 0x00 (0000ms, 0645ms total)
T1F74 000:866 JLINK_WriteReg(R9, 0x20000588)  returns 0x00 (0000ms, 0646ms total)
T1F74 000:866 JLINK_WriteReg(R10, 0x00000000)  returns 0x00 (0000ms, 0646ms total)
T1F74 000:866 JLINK_WriteReg(R11, 0x00000000)  returns 0x00 (0001ms, 0647ms total)
T1F74 000:867 JLINK_WriteReg(R12, 0x00000000)  returns 0x00 (0000ms, 0647ms total)
T1F74 000:867 JLINK_WriteReg(R13 (SP), 0x20001000)  returns 0x00 (0000ms, 0647ms total)
T1F74 000:867 JLINK_WriteReg(R14, 0x20000001)  returns 0x00 (0000ms, 0647ms total)
T1F74 000:868 JLINK_WriteReg(R15 (PC), 0x2000006C)  returns 0x00 (0000ms, 0648ms total)
T1F74 000:868 JLINK_WriteReg(XPSR, 0x01000000)  returns 0x00 (0000ms, 0648ms total)
T1F74 000:868 JLINK_WriteReg(MSP, 0x20001000)  returns 0x00 (0000ms, 0648ms total)
T1F74 000:869 JLINK_WriteReg(PSP, 0x20001000)  returns 0x00 (0000ms, 0649ms total)
T1F74 000:869 JLINK_WriteReg(CFBP, 0x00000000)  returns 0x00 (0000ms, 0649ms total)
T1F74 000:869 JLINK_SetBPEx(Addr = 0x20000000, Type = 0xFFFFFFF2)  returns 0x00000002 (0000ms, 0649ms total)
T1F74 000:870 JLINK_Go() -- CPU_ReadMem(4 bytes @ 0xE0001000) (0001ms, 0651ms total)
T1F74 000:872 JLINK_IsHalted()  returns TRUE (0002ms, 0654ms total)
T1F74 000:874 JLINK_ReadReg(R15 (PC))  returns 0x20000000 (0000ms, 0652ms total)
T1F74 000:874 JLINK_ClrBPEx(BPHandle = 0x00000002)  returns 0x00 (0000ms, 0652ms total)
T1F74 000:875 JLINK_ReadReg(R0)  returns 0x00000001 (0000ms, 0653ms total)
T1F74 000:875 JLINK_WriteReg(R0, 0x10000000)  returns 0x00 (0001ms, 0654ms total)
T1F74 000:876 JLINK_WriteReg(R1, 0x00002000)  returns 0x00 (0000ms, 0654ms total)
T1F74 000:876 JLINK_WriteReg(R2, 0x000000FF)  returns 0x00 (0000ms, 0654ms total)
T1F74 000:876 JLINK_WriteReg(R3, 0x00000000)  returns 0x00 (0000ms, 0654ms total)
T1F74 000:876 JLINK_WriteReg(R4, 0x00000000)  returns 0x00 (0001ms, 0655ms total)
T1F74 000:877 JLINK_WriteReg(R5, 0x00000000)  returns 0x00 (0000ms, 0655ms total)
T1F74 000:877 JLINK_WriteReg(R6, 0x00000000)  returns 0x00 (0000ms, 0655ms total)
T1F74 000:877 JLINK_WriteReg(R7, 0x00000000)  returns 0x00 (0001ms, 0656ms total)
T1F74 000:878 JLINK_WriteReg(R8, 0x00000000)  returns 0x00 (0000ms, 0656ms total)
T1F74 000:878 JLINK_WriteReg(R9, 0x20000588)  returns 0x00 (0000ms, 0656ms total)
T1F74 000:878 JLINK_WriteReg(R10, 0x00000000)  returns 0x00 (0001ms, 0657ms total)
T1F74 000:879 JLINK_WriteReg(R11, 0x00000000)  returns 0x00 (0000ms, 0657ms total)
T1F74 000:879 JLINK_WriteReg(R12, 0x00000000)  returns 0x00 (0000ms, 0657ms total)
T1F74 000:880 JLINK_WriteReg(R13 (SP), 0x20001000)  returns 0x00 (0000ms, 0657ms total)
T1F74 000:880 JLINK_WriteReg(R14, 0x20000001)  returns 0x00 (0000ms, 0657ms total)
T1F74 000:880 JLINK_WriteReg(R15 (PC), 0x200000C0)  returns 0x00 (0001ms, 0658ms total)
T1F74 000:881 JLINK_WriteReg(XPSR, 0x01000000)  returns 0x00 (0000ms, 0658ms total)
T1F74 000:881 JLINK_WriteReg(MSP, 0x20001000)  returns 0x00 (0000ms, 0658ms total)
T1F74 000:881 JLINK_WriteReg(PSP, 0x20001000)  returns 0x00 (0001ms, 0659ms total)
T1F74 000:882 JLINK_WriteReg(CFBP, 0x00000000)  returns 0x00 (0000ms, 0659ms total)
T1F74 000:882 JLINK_SetBPEx(Addr = 0x20000000, Type = 0xFFFFFFF2)  returns 0x00000003 (0000ms, 0659ms total)
T1F74 000:882 JLINK_Go() -- CPU_ReadMem(4 bytes @ 0xE0001000) (0002ms, 0661ms total)
T1F74 000:884 JLINK_IsHalted()  returns FALSE (0001ms, 0662ms total)
T1F74 000:998 JLINK_IsHalted()  returns TRUE (0002ms, 0663ms total)
T1F74 001:000 JLINK_ReadReg(R15 (PC))  returns 0x20000000 (0000ms, 0661ms total)
T1F74 001:000 JLINK_ClrBPEx(BPHandle = 0x00000003)  returns 0x00 (0000ms, 0661ms total)
T1F74 001:000 JLINK_ReadReg(R0)  returns 0x00000000 (0001ms, 0662ms total)
T1F74 001:002 JLINK_WriteReg(R0, 0x10002000)  returns 0x00 (0000ms, 0662ms total)
T1F74 001:002 JLINK_WriteReg(R1, 0x00002000)  returns 0x00 (0000ms, 0662ms total)
T1F74 001:002 JLINK_WriteReg(R2, 0x000000FF)  returns 0x00 (0000ms, 0662ms total)
T1F74 001:002 JLINK_WriteReg(R3, 0x00000000)  returns 0x00 (0000ms, 0662ms total)
T1F74 001:002 JLINK_WriteReg(R4, 0x00000000)  returns 0x00 (0000ms, 0662ms total)
T1F74 001:002 JLINK_WriteReg(R5, 0x00000000)  returns 0x00 (0000ms, 0662ms total)
T1F74 001:002 JLINK_WriteReg(R6, 0x00000000)  returns 0x00 (0000ms, 0662ms total)
T1F74 001:003 JLINK_WriteReg(R7, 0x00000000)  returns 0x00 (0000ms, 0663ms total)
T1F74 001:003 JLINK_WriteReg(R8, 0x00000000)  returns 0x00 (0000ms, 0663ms total)
T1F74 001:003 JLINK_WriteReg(R9, 0x20000588)  returns 0x00 (0000ms, 0663ms total)
T1F74 001:003 JLINK_WriteReg(R10, 0x00000000)  returns 0x00 (0001ms, 0664ms total)
T1F74 001:004 JLINK_WriteReg(R11, 0x00000000)  returns 0x00 (0000ms, 0664ms total)
T1F74 001:004 JLINK_WriteReg(R12, 0x00000000)  returns 0x00 (0000ms, 0664ms total)
T1F74 001:004 JLINK_WriteReg(R13 (SP), 0x20001000)  returns 0x00 (0000ms, 0664ms total)
T1F74 001:004 JLINK_WriteReg(R14, 0x20000001)  returns 0x00 (0001ms, 0665ms total)
T1F74 001:005 JLINK_WriteReg(R15 (PC), 0x2000006C)  returns 0x00 (0000ms, 0665ms total)
T1F74 001:005 JLINK_WriteReg(XPSR, 0x01000000)  returns 0x00 (0000ms, 0665ms total)
T1F74 001:005 JLINK_WriteReg(MSP, 0x20001000)  returns 0x00 (0001ms, 0666ms total)
T1F74 001:006 JLINK_WriteReg(PSP, 0x20001000)  returns 0x00 (0000ms, 0666ms total)
T1F74 001:006 JLINK_WriteReg(CFBP, 0x00000000)  returns 0x00 (0000ms, 0666ms total)
T1F74 001:006 JLINK_SetBPEx(Addr = 0x20000000, Type = 0xFFFFFFF2)  returns 0x00000004 (0001ms, 0667ms total)
T1F74 001:007 JLINK_Go() -- CPU_ReadMem(4 bytes @ 0xE0001000) (0002ms, 0669ms total)
T1F74 001:009 JLINK_IsHalted()  returns TRUE (0002ms, 0671ms total)
T1F74 001:011 JLINK_ReadReg(R15 (PC))  returns 0x20000000 (0000ms, 0669ms total)
T1F74 001:011 JLINK_ClrBPEx(BPHandle = 0x00000004)  returns 0x00 (0002ms, 0671ms total)
T1F74 001:013 JLINK_ReadReg(R0)  returns 0x00000001 (0000ms, 0671ms total)
T1F74 001:013 JLINK_WriteReg(R0, 0x10002000)  returns 0x00 (0000ms, 0671ms total)
T1F74 001:013 JLINK_WriteReg(R1, 0x00002000)  returns 0x00 (0000ms, 0671ms total)
T1F74 001:013 JLINK_WriteReg(R2, 0x000000FF)  returns 0x00 (0000ms, 0671ms total)
T1F74 001:013 JLINK_WriteReg(R3, 0x00000000)  returns 0x00 (0000ms, 0671ms total)
T1F74 001:013 JLINK_WriteReg(R4, 0x00000000)  returns 0x00 (0000ms, 0671ms total)
T1F74 001:014 JLINK_WriteReg(R5, 0x00000000)  returns 0x00 (0000ms, 0672ms total)
T1F74 001:014 JLINK_WriteReg(R6, 0x00000000)  returns 0x00 (0000ms, 0672ms total)
T1F74 001:014 JLINK_WriteReg(R7, 0x00000000)  returns 0x00 (0000ms, 0672ms total)
T1F74 001:014 JLINK_WriteReg(R8, 0x00000000)  returns 0x00 (0002ms, 0674ms total)
T1F74 001:016 JLINK_WriteReg(R9, 0x20000588)  returns 0x00 (0000ms, 0674ms total)
T1F74 001:016 JLINK_WriteReg(R10, 0x00000000)  returns 0x00 (0000ms, 0674ms total)
T1F74 001:016 JLINK_WriteReg(R11, 0x00000000)  returns 0x00 (0000ms, 0674ms total)
T1F74 001:016 JLINK_WriteReg(R12, 0x00000000)  returns 0x00 (0000ms, 0674ms total)
T1F74 001:016 JLINK_WriteReg(R13 (SP), 0x20001000)  returns 0x00 (0000ms, 0674ms total)
T1F74 001:017 JLINK_WriteReg(R14, 0x20000001)  returns 0x00 (0000ms, 0675ms total)
T1F74 001:017 JLINK_WriteReg(R15 (PC), 0x200000C0)  returns 0x00 (0000ms, 0675ms total)
T1F74 001:017 JLINK_WriteReg(XPSR, 0x01000000)  returns 0x00 (0000ms, 0675ms total)
T1F74 001:018 JLINK_WriteReg(MSP, 0x20001000)  returns 0x00 (0000ms, 0676ms total)
T1F74 001:019 JLINK_WriteReg(PSP, 0x20001000)  returns 0x00 (0000ms, 0677ms total)
T1F74 001:019 JLINK_WriteReg(CFBP, 0x00000000)  returns 0x00 (0000ms, 0677ms total)
T1F74 001:019 JLINK_SetBPEx(Addr = 0x20000000, Type = 0xFFFFFFF2)  returns 0x00000005 (0000ms, 0677ms total)
T1F74 001:019 JLINK_Go() -- CPU_ReadMem(4 bytes @ 0xE0001000) (0002ms, 0679ms total)
T1F74 001:021 JLINK_IsHalted()  returns FALSE (0000ms, 0679ms total)
T1F74 001:030 JLINK_IsHalted()  returns TRUE (0002ms, 0681ms total)
T1F74 001:032 JLINK_ReadReg(R15 (PC))  returns 0x20000000 (0000ms, 0679ms total)
T1F74 001:032 JLINK_ClrBPEx(BPHandle = 0x00000005)  returns 0x00 (0000ms, 0679ms total)
T1F74 001:033 JLINK_ReadReg(R0)  returns 0x00000000 (0000ms, 0680ms total)
T1F74 001:034 JLINK_WriteReg(R0, 0x10004000)  returns 0x00 (0000ms, 0680ms total)
T1F74 001:035 JLINK_WriteReg(R1, 0x00002000)  returns 0x00 (0000ms, 0681ms total)
T1F74 001:035 JLINK_WriteReg(R2, 0x000000FF)  returns 0x00 (0000ms, 0681ms total)
T1F74 001:035 JLINK_WriteReg(R3, 0x00000000)  returns 0x00 (0001ms, 0682ms total)
T1F74 001:036 JLINK_WriteReg(R4, 0x00000000)  returns 0x00 (0000ms, 0682ms total)
T1F74 001:036 JLINK_WriteReg(R5, 0x00000000)  returns 0x00 (0001ms, 0683ms total)
T1F74 001:037 JLINK_WriteReg(R6, 0x00000000)  returns 0x00 (0000ms, 0683ms total)
T1F74 001:037 JLINK_WriteReg(R7, 0x00000000)  returns 0x00 (0000ms, 0683ms total)
T1F74 001:037 JLINK_WriteReg(R8, 0x00000000)  returns 0x00 (0000ms, 0683ms total)
T1F74 001:037 JLINK_WriteReg(R9, 0x20000588)  returns 0x00 (0001ms, 0684ms total)
T1F74 001:038 JLINK_WriteReg(R10, 0x00000000)  returns 0x00 (0000ms, 0684ms total)
T1F74 001:038 JLINK_WriteReg(R11, 0x00000000)  returns 0x00 (0000ms, 0684ms total)
T1F74 001:038 JLINK_WriteReg(R12, 0x00000000)  returns 0x00 (0001ms, 0685ms total)
T1F74 001:039 JLINK_WriteReg(R13 (SP), 0x20001000)  returns 0x00 (0000ms, 0685ms total)
T1F74 001:039 JLINK_WriteReg(R14, 0x20000001)  returns 0x00 (0000ms, 0685ms total)
T1F74 001:039 JLINK_WriteReg(R15 (PC), 0x2000006C)  returns 0x00 (0001ms, 0686ms total)
T1F74 001:040 JLINK_WriteReg(XPSR, 0x01000000)  returns 0x00 (0000ms, 0686ms total)
T1F74 001:040 JLINK_WriteReg(MSP, 0x20001000)  returns 0x00 (0000ms, 0686ms total)
T1F74 001:040 JLINK_WriteReg(PSP, 0x20001000)  returns 0x00 (0001ms, 0687ms total)
T1F74 001:042 JLINK_WriteReg(CFBP, 0x00000000)  returns 0x00 (0000ms, 0687ms total)
T1F74 001:042 JLINK_SetBPEx(Addr = 0x20000000, Type = 0xFFFFFFF2)  returns 0x00000006 (0000ms, 0687ms total)
T1F74 001:042 JLINK_Go() -- CPU_ReadMem(4 bytes @ 0xE0001000) (0002ms, 0689ms total)
T1F74 001:044 JLINK_IsHalted()  returns TRUE (0002ms, 0691ms total)
T1F74 001:046 JLINK_ReadReg(R15 (PC))  returns 0x20000000 (0000ms, 0689ms total)
T1F74 001:046 JLINK_ClrBPEx(BPHandle = 0x00000006)  returns 0x00 (0000ms, 0689ms total)
T1F74 001:047 JLINK_ReadReg(R0)  returns 0x00000001 (0000ms, 0689ms total)
T1F74 001:047 JLINK_WriteReg(R0, 0x10004000)  returns 0x00 (0000ms, 0689ms total)
T1F74 001:047 JLINK_WriteReg(R1, 0x00002000)  returns 0x00 (0000ms, 0689ms total)
T1F74 001:047 JLINK_WriteReg(R2, 0x000000FF)  returns 0x00 (0001ms, 0690ms total)
T1F74 001:048 JLINK_WriteReg(R3, 0x00000000)  returns 0x00 (0000ms, 0690ms total)
T1F74 001:048 JLINK_WriteReg(R4, 0x00000000)  returns 0x00 (0000ms, 0690ms total)
T1F74 001:048 JLINK_WriteReg(R5, 0x00000000)  returns 0x00 (0001ms, 0691ms total)
T1F74 001:049 JLINK_WriteReg(R6, 0x00000000)  returns 0x00 (0000ms, 0691ms total)
T1F74 001:049 JLINK_WriteReg(R7, 0x00000000)  returns 0x00 (0000ms, 0691ms total)
T1F74 001:049 JLINK_WriteReg(R8, 0x00000000)  returns 0x00 (0001ms, 0692ms total)
T1F74 001:050 JLINK_WriteReg(R9, 0x20000588)  returns 0x00 (0000ms, 0692ms total)
T1F74 001:050 JLINK_WriteReg(R10, 0x00000000)  returns 0x00 (0000ms, 0692ms total)
T1F74 001:051 JLINK_WriteReg(R11, 0x00000000)  returns 0x00 (0000ms, 0693ms total)
T1F74 001:051 JLINK_WriteReg(R12, 0x00000000)  returns 0x00 (0000ms, 0693ms total)
T1F74 001:051 JLINK_WriteReg(R13 (SP), 0x20001000)  returns 0x00 (0001ms, 0694ms total)
T1F74 001:052 JLINK_WriteReg(R14, 0x20000001)  returns 0x00 (0000ms, 0694ms total)
T1F74 001:052 JLINK_WriteReg(R15 (PC), 0x200000C0)  returns 0x00 (0000ms, 0694ms total)
T1F74 001:052 JLINK_WriteReg(XPSR, 0x01000000)  returns 0x00 (0000ms, 0694ms total)
T1F74 001:052 JLINK_WriteReg(MSP, 0x20001000)  returns 0x00 (0000ms, 0694ms total)
T1F74 001:052 JLINK_WriteReg(PSP, 0x20001000)  returns 0x00 (0001ms, 0695ms total)
T1F74 001:053 JLINK_WriteReg(CFBP, 0x00000000)  returns 0x00 (0000ms, 0695ms total)
T1F74 001:053 JLINK_SetBPEx(Addr = 0x20000000, Type = 0xFFFFFFF2)  returns 0x00000007 (0000ms, 0695ms total)
T1F74 001:053 JLINK_Go() -- CPU_ReadMem(4 bytes @ 0xE0001000) (0002ms, 0697ms total)
T1F74 001:055 JLINK_IsHalted()  returns FALSE (0000ms, 0697ms total)
T1F74 001:064 JLINK_IsHalted()  returns TRUE (0002ms, 0699ms total)
T1F74 001:066 JLINK_ReadReg(R15 (PC))  returns 0x20000000 (0000ms, 0697ms total)
T1F74 001:066 JLINK_ClrBPEx(BPHandle = 0x00000007)  returns 0x00 (0001ms, 0698ms total)
T1F74 001:067 JLINK_ReadReg(R0)  returns 0x00000000 (0000ms, 0698ms total)
T1F74 001:068 JLINK_WriteReg(R0, 0x10006000)  returns 0x00 (0001ms, 0699ms total)
T1F74 001:069 JLINK_WriteReg(R1, 0x00002000)  returns 0x00 (0000ms, 0699ms total)
T1F74 001:069 JLINK_WriteReg(R2, 0x000000FF)  returns 0x00 (0000ms, 0699ms total)
T1F74 001:069 JLINK_WriteReg(R3, 0x00000000)  returns 0x00 (0001ms, 0700ms total)
T1F74 001:070 JLINK_WriteReg(R4, 0x00000000)  returns 0x00 (0000ms, 0700ms total)
T1F74 001:070 JLINK_WriteReg(R5, 0x00000000)  returns 0x00 (0000ms, 0700ms total)
T1F74 001:070 JLINK_WriteReg(R6, 0x00000000)  returns 0x00 (0001ms, 0701ms total)
T1F74 001:071 JLINK_WriteReg(R7, 0x00000000)  returns 0x00 (0000ms, 0701ms total)
T1F74 001:071 JLINK_WriteReg(R8, 0x00000000)  returns 0x00 (0000ms, 0701ms total)
T1F74 001:071 JLINK_WriteReg(R9, 0x20000588)  returns 0x00 (0001ms, 0702ms total)
T1F74 001:072 JLINK_WriteReg(R10, 0x00000000)  returns 0x00 (0000ms, 0702ms total)
T1F74 001:072 JLINK_WriteReg(R11, 0x00000000)  returns 0x00 (0000ms, 0702ms total)
T1F74 001:073 JLINK_WriteReg(R12, 0x00000000)  returns 0x00 (0000ms, 0703ms total)
T1F74 001:073 JLINK_WriteReg(R13 (SP), 0x20001000)  returns 0x00 (0000ms, 0703ms total)
T1F74 001:073 JLINK_WriteReg(R14, 0x20000001)  returns 0x00 (0000ms, 0703ms total)
T1F74 001:073 JLINK_WriteReg(R15 (PC), 0x2000006C)  returns 0x00 (0001ms, 0704ms total)
T1F74 001:074 JLINK_WriteReg(XPSR, 0x01000000)  returns 0x00 (0000ms, 0704ms total)
T1F74 001:074 JLINK_WriteReg(MSP, 0x20001000)  returns 0x00 (0001ms, 0705ms total)
T1F74 001:075 JLINK_WriteReg(PSP, 0x20001000)  returns 0x00 (0000ms, 0705ms total)
T1F74 001:075 JLINK_WriteReg(CFBP, 0x00000000)  returns 0x00 (0000ms, 0705ms total)
T1F74 001:075 JLINK_SetBPEx(Addr = 0x20000000, Type = 0xFFFFFFF2)  returns 0x00000008 (0001ms, 0706ms total)
T1F74 001:076 JLINK_Go() -- CPU_ReadMem(4 bytes @ 0xE0001000) (0002ms, 0708ms total)
T1F74 001:078 JLINK_IsHalted()  returns TRUE (0002ms, 0710ms total)
T1F74 001:080 JLINK_ReadReg(R15 (PC))  returns 0x20000000 (0000ms, 0708ms total)
T1F74 001:080 JLINK_ClrBPEx(BPHandle = 0x00000008)  returns 0x00 (0000ms, 0708ms total)
T1F74 001:081 JLINK_ReadReg(R0)  returns 0x00000000 (0000ms, 0709ms total)
T1F74 001:081 JLINK_WriteReg(R0, 0x00000001)  returns 0x00 (0000ms, 0709ms total)
T1F74 001:081 JLINK_WriteReg(R1, 0x00002000)  returns 0x00 (0001ms, 0710ms total)
T1F74 001:082 JLINK_WriteReg(R2, 0x000000FF)  returns 0x00 (0000ms, 0710ms total)
T1F74 001:082 JLINK_WriteReg(R3, 0x00000000)  returns 0x00 (0000ms, 0710ms total)
T1F74 001:082 JLINK_WriteReg(R4, 0x00000000)  returns 0x00 (0001ms, 0711ms total)
T1F74 001:083 JLINK_WriteReg(R5, 0x00000000)  returns 0x00 (0000ms, 0711ms total)
T1F74 001:083 JLINK_WriteReg(R6, 0x00000000)  returns 0x00 (0000ms, 0711ms total)
T1F74 001:083 JLINK_WriteReg(R7, 0x00000000)  returns 0x00 (0000ms, 0711ms total)
T1F74 001:083 JLINK_WriteReg(R8, 0x00000000)  returns 0x00 (0001ms, 0712ms total)
T1F74 001:084 JLINK_WriteReg(R9, 0x20000588)  returns 0x00 (0000ms, 0712ms total)
T1F74 001:084 JLINK_WriteReg(R10, 0x00000000)  returns 0x00 (0000ms, 0712ms total)
T1F74 001:084 JLINK_WriteReg(R11, 0x00000000)  returns 0x00 (0000ms, 0712ms total)
T1F74 001:084 JLINK_WriteReg(R12, 0x00000000)  returns 0x00 (0001ms, 0713ms total)
T1F74 001:085 JLINK_WriteReg(R13 (SP), 0x20001000)  returns 0x00 (0000ms, 0713ms total)
T1F74 001:085 JLINK_WriteReg(R14, 0x20000001)  returns 0x00 (0000ms, 0713ms total)
T1F74 001:086 JLINK_WriteReg(R15 (PC), 0x20000068)  returns 0x00 (0000ms, 0714ms total)
T1F74 001:086 JLINK_WriteReg(XPSR, 0x01000000)  returns 0x00 (0000ms, 0714ms total)
T1F74 001:086 JLINK_WriteReg(MSP, 0x20001000)  returns 0x00 (0000ms, 0714ms total)
T1F74 001:086 JLINK_WriteReg(PSP, 0x20001000)  returns 0x00 (0000ms, 0714ms total)
T1F74 001:087 JLINK_WriteReg(CFBP, 0x00000000)  returns 0x00 (0000ms, 0715ms total)
T1F74 001:088 JLINK_SetBPEx(Addr = 0x20000000, Type = 0xFFFFFFF2)  returns 0x00000009 (0000ms, 0715ms total)
T1F74 001:088 JLINK_Go() -- CPU_ReadMem(4 bytes @ 0xE0001000) (0001ms, 0716ms total)
T1F74 001:089 JLINK_IsHalted()  returns TRUE (0002ms, 0718ms total)
T1F74 001:091 JLINK_ReadReg(R15 (PC))  returns 0x20000000 (0000ms, 0716ms total)
T1F74 001:091 JLINK_ClrBPEx(BPHandle = 0x00000009)  returns 0x00 (0001ms, 0717ms total)
T1F74 001:092 JLINK_ReadReg(R0)  returns 0x00000000 (0000ms, 0717ms total)
T1F74 001:157 JLINK_WriteMem(0x20000000, 0x0590 Bytes, ...) - Data: 00 BE 0A E0 0D 78 2D 06 68 40 08 24 40 00 00 D3 ... -- CPU_WriteMem(1424 bytes @ 0x20000000)  returns 0x590 (0007ms, 0724ms total)
T1F74 001:165 JLINK_WriteReg(R0, 0x10000000)  returns 0x00 (0000ms, 0724ms total)
T1F74 001:165 JLINK_WriteReg(R1, 0x00B71B00)  returns 0x00 (0000ms, 0724ms total)
T1F74 001:165 JLINK_WriteReg(R2, 0x00000002)  returns 0x00 (0001ms, 0725ms total)
T1F74 001:166 JLINK_WriteReg(R3, 0x00000000)  returns 0x00 (0000ms, 0725ms total)
T1F74 001:166 JLINK_WriteReg(R4, 0x00000000)  returns 0x00 (0000ms, 0725ms total)
T1F74 001:166 JLINK_WriteReg(R5, 0x00000000)  returns 0x00 (0001ms, 0726ms total)
T1F74 001:167 JLINK_WriteReg(R6, 0x00000000)  returns 0x00 (0000ms, 0726ms total)
T1F74 001:167 JLINK_WriteReg(R7, 0x00000000)  returns 0x00 (0000ms, 0726ms total)
T1F74 001:167 JLINK_WriteReg(R8, 0x00000000)  returns 0x00 (0000ms, 0726ms total)
T1F74 001:167 JLINK_WriteReg(R9, 0x20000588)  returns 0x00 (0001ms, 0727ms total)
T1F74 001:168 JLINK_WriteReg(R10, 0x00000000)  returns 0x00 (0000ms, 0727ms total)
T1F74 001:168 JLINK_WriteReg(R11, 0x00000000)  returns 0x00 (0000ms, 0727ms total)
T1F74 001:168 JLINK_WriteReg(R12, 0x00000000)  returns 0x00 (0000ms, 0727ms total)
T1F74 001:169 JLINK_WriteReg(R13 (SP), 0x20001000)  returns 0x00 (0000ms, 0728ms total)
T1F74 001:169 JLINK_WriteReg(R14, 0x20000001)  returns 0x00 (0000ms, 0728ms total)
T1F74 001:169 JLINK_WriteReg(R15 (PC), 0x20000020)  returns 0x00 (0000ms, 0728ms total)
T1F74 001:170 JLINK_WriteReg(XPSR, 0x01000000)  returns 0x00 (0000ms, 0729ms total)
T1F74 001:170 JLINK_WriteReg(MSP, 0x20001000)  returns 0x00 (0000ms, 0729ms total)
T1F74 001:170 JLINK_WriteReg(PSP, 0x20001000)  returns 0x00 (0000ms, 0729ms total)
T1F74 001:170 JLINK_WriteReg(CFBP, 0x00000000)  returns 0x00 (0001ms, 0730ms total)
T1F74 001:171 JLINK_SetBPEx(Addr = 0x20000000, Type = 0xFFFFFFF2)  returns 0x0000000A (0000ms, 0730ms total)
T1F74 001:171 JLINK_Go() -- CPU_ReadMem(4 bytes @ 0xE0001000) (0001ms, 0731ms total)
T1F74 001:173 JLINK_IsHalted()  returns TRUE (0002ms, 0734ms total)
T1F74 001:175 JLINK_ReadReg(R15 (PC))  returns 0x20000000 (0000ms, 0732ms total)
T1F74 001:175 JLINK_ClrBPEx(BPHandle = 0x0000000A)  returns 0x00 (0000ms, 0732ms total)
T1F74 001:175 JLINK_ReadReg(R0)  returns 0x00000000 (0000ms, 0732ms total)
T1F74 001:176 JLINK_WriteMem(0x200005B8, 0x0200 Bytes, ...) - Data: 00 00 02 20 25 04 00 10 3D 04 00 10 3F 04 00 10 ... -- CPU_WriteMem(512 bytes @ 0x200005B8)  returns 0x200 (0004ms, 0736ms total)
T1F74 001:180 JLINK_WriteReg(R0, 0x10000000)  returns 0x00 (0000ms, 0736ms total)
T1F74 001:180 JLINK_WriteReg(R1, 0x00000200)  returns 0x00 (0000ms, 0736ms total)
T1F74 001:180 JLINK_WriteReg(R2, 0x200005B8)  returns 0x00 (0000ms, 0736ms total)
T1F74 001:180 JLINK_WriteReg(R3, 0x00000000)  returns 0x00 (0001ms, 0737ms total)
T1F74 001:181 JLINK_WriteReg(R4, 0x00000000)  returns 0x00 (0000ms, 0737ms total)
T1F74 001:181 JLINK_WriteReg(R5, 0x00000000)  returns 0x00 (0000ms, 0737ms total)
T1F74 001:181 JLINK_WriteReg(R6, 0x00000000)  returns 0x00 (0000ms, 0737ms total)
T1F74 001:181 JLINK_WriteReg(R7, 0x00000000)  returns 0x00 (0001ms, 0738ms total)
T1F74 001:182 JLINK_WriteReg(R8, 0x00000000)  returns 0x00 (0000ms, 0738ms total)
T1F74 001:182 JLINK_WriteReg(R9, 0x20000588)  returns 0x00 (0000ms, 0738ms total)
T1F74 001:182 JLINK_WriteReg(R10, 0x00000000)  returns 0x00 (0000ms, 0738ms total)
T1F74 001:182 JLINK_WriteReg(R11, 0x00000000)  returns 0x00 (0001ms, 0739ms total)
T1F74 001:183 JLINK_WriteReg(R12, 0x00000000)  returns 0x00 (0000ms, 0739ms total)
T1F74 001:184 JLINK_WriteReg(R13 (SP), 0x20001000)  returns 0x00 (0000ms, 0740ms total)
T1F74 001:184 JLINK_WriteReg(R14, 0x20000001)  returns 0x00 (0000ms, 0740ms total)
T1F74 001:184 JLINK_WriteReg(R15 (PC), 0x200000D8)  returns 0x00 (0000ms, 0740ms total)
T1F74 001:184 JLINK_WriteReg(XPSR, 0x01000000)  returns 0x00 (0000ms, 0740ms total)
T1F74 001:184 JLINK_WriteReg(MSP, 0x20001000)  returns 0x00 (0001ms, 0741ms total)
T1F74 001:185 JLINK_WriteReg(PSP, 0x20001000)  returns 0x00 (0000ms, 0741ms total)
T1F74 001:185 JLINK_WriteReg(CFBP, 0x00000000)  returns 0x00 (0000ms, 0741ms total)
T1F74 001:185 JLINK_SetBPEx(Addr = 0x20000000, Type = 0xFFFFFFF2)  returns 0x0000000B (0001ms, 0742ms total)
T1F74 001:186 JLINK_Go() -- CPU_ReadMem(4 bytes @ 0xE0001000) (0002ms, 0744ms total)
T1F74 001:188 JLINK_IsHalted()  returns FALSE (0000ms, 0744ms total)
T1F74 001:219 JLINK_IsHalted()  returns TRUE (0002ms, 0746ms total)
T1F74 001:221 JLINK_ReadReg(R15 (PC))  returns 0x20000000 (0000ms, 0744ms total)
T1F74 001:221 JLINK_ClrBPEx(BPHandle = 0x0000000B)  returns 0x00 (0000ms, 0744ms total)
T1F74 001:221 JLINK_ReadReg(R0)  returns 0x00000000 (0000ms, 0744ms total)
T1F74 001:222 JLINK_WriteMem(0x200005B8, 0x0200 Bytes, ...) - Data: 2F 05 00 10 2F 05 00 10 2F 05 00 10 17 05 00 10 ... -- CPU_WriteMem(512 bytes @ 0x200005B8)  returns 0x200 (0004ms, 0748ms total)
T1F74 001:226 JLINK_WriteReg(R0, 0x10000200)  returns 0x00 (0000ms, 0748ms total)
T1F74 001:226 JLINK_WriteReg(R1, 0x00000200)  returns 0x00 (0000ms, 0748ms total)
T1F74 001:226 JLINK_WriteReg(R2, 0x200005B8)  returns 0x00 (0001ms, 0749ms total)
T1F74 001:227 JLINK_WriteReg(R3, 0x00000000)  returns 0x00 (0000ms, 0749ms total)
T1F74 001:227 JLINK_WriteReg(R4, 0x00000000)  returns 0x00 (0000ms, 0749ms total)
T1F74 001:227 JLINK_WriteReg(R5, 0x00000000)  returns 0x00 (0000ms, 0749ms total)
T1F74 001:227 JLINK_WriteReg(R6, 0x00000000)  returns 0x00 (0001ms, 0750ms total)
T1F74 001:228 JLINK_WriteReg(R7, 0x00000000)  returns 0x00 (0000ms, 0750ms total)
T1F74 001:228 JLINK_WriteReg(R8, 0x00000000)  returns 0x00 (0000ms, 0750ms total)
T1F74 001:228 JLINK_WriteReg(R9, 0x20000588)  returns 0x00 (0000ms, 0750ms total)
T1F74 001:228 JLINK_WriteReg(R10, 0x00000000)  returns 0x00 (0001ms, 0751ms total)
T1F74 001:229 JLINK_WriteReg(R11, 0x00000000)  returns 0x00 (0000ms, 0751ms total)
T1F74 001:229 JLINK_WriteReg(R12, 0x00000000)  returns 0x00 (0000ms, 0751ms total)
T1F74 001:230 JLINK_WriteReg(R13 (SP), 0x20001000)  returns 0x00 (0000ms, 0752ms total)
T1F74 001:230 JLINK_WriteReg(R14, 0x20000001)  returns 0x00 (0000ms, 0752ms total)
T1F74 001:230 JLINK_WriteReg(R15 (PC), 0x200000D8)  returns 0x00 (0000ms, 0752ms total)
T1F74 001:230 JLINK_WriteReg(XPSR, 0x01000000)  returns 0x00 (0000ms, 0752ms total)
T1F74 001:230 JLINK_WriteReg(MSP, 0x20001000)  returns 0x00 (0001ms, 0753ms total)
T1F74 001:231 JLINK_WriteReg(PSP, 0x20001000)  returns 0x00 (0000ms, 0753ms total)
T1F74 001:231 JLINK_WriteReg(CFBP, 0x00000000)  returns 0x00 (0000ms, 0753ms total)
T1F74 001:231 JLINK_SetBPEx(Addr = 0x20000000, Type = 0xFFFFFFF2)  returns 0x0000000C (0000ms, 0753ms total)
T1F74 001:232 JLINK_Go() -- CPU_ReadMem(4 bytes @ 0xE0001000) (0001ms, 0755ms total)
T1F74 001:234 JLINK_IsHalted()  returns FALSE (0000ms, 0756ms total)
T1F74 001:238 JLINK_IsHalted()  returns FALSE (0000ms, 0756ms total)
T1F74 001:240 JLINK_IsHalted()  returns TRUE (0002ms, 0758ms total)
T1F74 001:242 JLINK_ReadReg(R15 (PC))  returns 0x20000000 (0000ms, 0756ms total)
T1F74 001:242 JLINK_ClrBPEx(BPHandle = 0x0000000C)  returns 0x00 (0000ms, 0756ms total)
T1F74 001:242 JLINK_ReadReg(R0)  returns 0x00000000 (0001ms, 0757ms total)
T1F74 001:244 JLINK_WriteMem(0x200005B8, 0x0200 Bytes, ...) - Data: FF FF FF FF FF FF FF FF FF FF FF FF FE FF FF FF ... -- CPU_WriteMem(512 bytes @ 0x200005B8)  returns 0x200 (0003ms, 0760ms total)
T1F74 001:247 JLINK_WriteReg(R0, 0x10000400)  returns 0x00 (0000ms, 0760ms total)
T1F74 001:247 JLINK_WriteReg(R1, 0x00000200)  returns 0x00 (0000ms, 0760ms total)
T1F74 001:248 JLINK_WriteReg(R2, 0x200005B8)  returns 0x00 (0000ms, 0761ms total)
T1F74 001:248 JLINK_WriteReg(R3, 0x00000000)  returns 0x00 (0000ms, 0761ms total)
T1F74 001:248 JLINK_WriteReg(R4, 0x00000000)  returns 0x00 (0001ms, 0762ms total)
T1F74 001:249 JLINK_WriteReg(R5, 0x00000000)  returns 0x00 (0000ms, 0762ms total)
T1F74 001:249 JLINK_WriteReg(R6, 0x00000000)  returns 0x00 (0000ms, 0762ms total)
T1F74 001:249 JLINK_WriteReg(R7, 0x00000000)  returns 0x00 (0001ms, 0763ms total)
T1F74 001:250 JLINK_WriteReg(R8, 0x00000000)  returns 0x00 (0000ms, 0763ms total)
T1F74 001:250 JLINK_WriteReg(R9, 0x20000588)  returns 0x00 (0000ms, 0763ms total)
T1F74 001:250 JLINK_WriteReg(R10, 0x00000000)  returns 0x00 (0001ms, 0764ms total)
T1F74 001:251 JLINK_WriteReg(R11, 0x00000000)  returns 0x00 (0000ms, 0764ms total)
T1F74 001:251 JLINK_WriteReg(R12, 0x00000000)  returns 0x00 (0000ms, 0764ms total)
T1F74 001:252 JLINK_WriteReg(R13 (SP), 0x20001000)  returns 0x00 (0000ms, 0765ms total)
T1F74 001:252 JLINK_WriteReg(R14, 0x20000001)  returns 0x00 (0000ms, 0765ms total)
T1F74 001:252 JLINK_WriteReg(R15 (PC), 0x200000D8)  returns 0x00 (0000ms, 0765ms total)
T1F74 001:253 JLINK_WriteReg(XPSR, 0x01000000)  returns 0x00 (0000ms, 0765ms total)
T1F74 001:253 JLINK_WriteReg(MSP, 0x20001000)  returns 0x00 (0000ms, 0765ms total)
T1F74 001:253 JLINK_WriteReg(PSP, 0x20001000)  returns 0x00 (0000ms, 0765ms total)
T1F74 001:253 JLINK_WriteReg(CFBP, 0x00000000)  returns 0x00 (0001ms, 0766ms total)
T1F74 001:254 JLINK_SetBPEx(Addr = 0x20000000, Type = 0xFFFFFFF2)  returns 0x0000000D (0000ms, 0766ms total)
T1F74 001:254 JLINK_Go() -- CPU_ReadMem(4 bytes @ 0xE0001000) (0002ms, 0768ms total)
T1F74 001:256 JLINK_IsHalted()  returns FALSE (0001ms, 0769ms total)
T1F74 001:265 JLINK_IsHalted()  returns TRUE (0002ms, 0770ms total)
T1F74 001:267 JLINK_ReadReg(R15 (PC))  returns 0x20000000 (0000ms, 0768ms total)
T1F74 001:267 JLINK_ClrBPEx(BPHandle = 0x0000000D)  returns 0x00 (0000ms, 0768ms total)
T1F74 001:267 JLINK_ReadReg(R0)  returns 0x00000000 (0001ms, 0769ms total)
T1F74 001:268 JLINK_WriteMem(0x200005B8, 0x0200 Bytes, ...) - Data: 00 00 00 00 00 00 00 00 00 00 00 00 00 00 00 00 ... -- CPU_WriteMem(512 bytes @ 0x200005B8)  returns 0x200 (0004ms, 0773ms total)
T1F74 001:272 JLINK_WriteReg(R0, 0x10000600)  returns 0x00 (0000ms, 0773ms total)
T1F74 001:272 JLINK_WriteReg(R1, 0x00000200)  returns 0x00 (0000ms, 0773ms total)
T1F74 001:272 JLINK_WriteReg(R2, 0x200005B8)  returns 0x00 (0001ms, 0774ms total)
T1F74 001:273 JLINK_WriteReg(R3, 0x00000000)  returns 0x00 (0000ms, 0774ms total)
T1F74 001:273 JLINK_WriteReg(R4, 0x00000000)  returns 0x00 (0000ms, 0774ms total)
T1F74 001:273 JLINK_WriteReg(R5, 0x00000000)  returns 0x00 (0000ms, 0774ms total)
T1F74 001:273 JLINK_WriteReg(R6, 0x00000000)  returns 0x00 (0000ms, 0774ms total)
T1F74 001:274 JLINK_WriteReg(R7, 0x00000000)  returns 0x00 (0000ms, 0775ms total)
T1F74 001:274 JLINK_WriteReg(R8, 0x00000000)  returns 0x00 (0000ms, 0775ms total)
T1F74 001:274 JLINK_WriteReg(R9, 0x20000588)  returns 0x00 (0000ms, 0775ms total)
T1F74 001:275 JLINK_WriteReg(R10, 0x00000000)  returns 0x00 (0000ms, 0776ms total)
T1F74 001:275 JLINK_WriteReg(R11, 0x00000000)  returns 0x00 (0000ms, 0776ms total)
T1F74 001:275 JLINK_WriteReg(R12, 0x00000000)  returns 0x00 (0000ms, 0776ms total)
T1F74 001:275 JLINK_WriteReg(R13 (SP), 0x20001000)  returns 0x00 (0001ms, 0777ms total)
T1F74 001:276 JLINK_WriteReg(R14, 0x20000001)  returns 0x00 (0000ms, 0777ms total)
T1F74 001:276 JLINK_WriteReg(R15 (PC), 0x200000D8)  returns 0x00 (0000ms, 0777ms total)
T1F74 001:276 JLINK_WriteReg(XPSR, 0x01000000)  returns 0x00 (0000ms, 0777ms total)
T1F74 001:276 JLINK_WriteReg(MSP, 0x20001000)  returns 0x00 (0001ms, 0778ms total)
T1F74 001:277 JLINK_WriteReg(PSP, 0x20001000)  returns 0x00 (0000ms, 0778ms total)
T1F74 001:277 JLINK_WriteReg(CFBP, 0x00000000)  returns 0x00 (0000ms, 0778ms total)
T1F74 001:277 JLINK_SetBPEx(Addr = 0x20000000, Type = 0xFFFFFFF2)  returns 0x0000000E (0000ms, 0778ms total)
T1F74 001:277 JLINK_Go() -- CPU_ReadMem(4 bytes @ 0xE0001000) (0002ms, 0780ms total)
T1F74 001:279 JLINK_IsHalted()  returns FALSE (0001ms, 0781ms total)
T1F74 001:284 JLINK_IsHalted()  returns FALSE (0000ms, 0780ms total)
T1F74 001:286 JLINK_IsHalted()  returns TRUE (0002ms, 0782ms total)
T1F74 001:288 JLINK_ReadReg(R15 (PC))  returns 0x20000000 (0000ms, 0780ms total)
T1F74 001:288 JLINK_ClrBPEx(BPHandle = 0x0000000E)  returns 0x00 (0000ms, 0780ms total)
T1F74 001:288 JLINK_ReadReg(R0)  returns 0x00000000 (0000ms, 0780ms total)
T1F74 001:289 JLINK_WriteMem(0x200005B8, 0x0200 Bytes, ...) - Data: 81 54 47 EA 83 57 A4 FB 07 68 02 95 8D 0A 05 FB ... -- CPU_WriteMem(512 bytes @ 0x200005B8)  returns 0x200 (0004ms, 0784ms total)
T1F74 001:293 JLINK_WriteReg(R0, 0x10000800)  returns 0x00 (0000ms, 0784ms total)
T1F74 001:293 JLINK_WriteReg(R1, 0x00000200)  returns 0x00 (0001ms, 0785ms total)
T1F74 001:294 JLINK_WriteReg(R2, 0x200005B8)  returns 0x00 (0000ms, 0785ms total)
T1F74 001:294 JLINK_WriteReg(R3, 0x00000000)  returns 0x00 (0000ms, 0785ms total)
T1F74 001:294 JLINK_WriteReg(R4, 0x00000000)  returns 0x00 (0000ms, 0785ms total)
T1F74 001:294 JLINK_WriteReg(R5, 0x00000000)  returns 0x00 (0000ms, 0785ms total)
T1F74 001:294 JLINK_WriteReg(R6, 0x00000000)  returns 0x00 (0001ms, 0786ms total)
T1F74 001:295 JLINK_WriteReg(R7, 0x00000000)  returns 0x00 (0000ms, 0786ms total)
T1F74 001:295 JLINK_WriteReg(R8, 0x00000000)  returns 0x00 (0000ms, 0786ms total)
T1F74 001:295 JLINK_WriteReg(R9, 0x20000588)  returns 0x00 (0000ms, 0786ms total)
T1F74 001:295 JLINK_WriteReg(R10, 0x00000000)  returns 0x00 (0001ms, 0787ms total)
T1F74 001:296 JLINK_WriteReg(R11, 0x00000000)  returns 0x00 (0000ms, 0787ms total)
T1F74 001:296 JLINK_WriteReg(R12, 0x00000000)  returns 0x00 (0000ms, 0787ms total)
T1F74 001:296 JLINK_WriteReg(R13 (SP), 0x20001000)  returns 0x00 (0000ms, 0787ms total)
T1F74 001:296 JLINK_WriteReg(R14, 0x20000001)  returns 0x00 (0000ms, 0787ms total)
T1F74 001:296 JLINK_WriteReg(R15 (PC), 0x200000D8)  returns 0x00 (0001ms, 0788ms total)
T1F74 001:297 JLINK_WriteReg(XPSR, 0x01000000)  returns 0x00 (0000ms, 0788ms total)
T1F74 001:297 JLINK_WriteReg(MSP, 0x20001000)  returns 0x00 (0000ms, 0788ms total)
T1F74 001:297 JLINK_WriteReg(PSP, 0x20001000)  returns 0x00 (0000ms, 0788ms total)
T1F74 001:298 JLINK_WriteReg(CFBP, 0x00000000)  returns 0x00 (0000ms, 0789ms total)
T1F74 001:298 JLINK_SetBPEx(Addr = 0x20000000, Type = 0xFFFFFFF2)  returns 0x0000000F (0000ms, 0789ms total)
T1F74 001:298 JLINK_Go() -- CPU_ReadMem(4 bytes @ 0xE0001000) (0002ms, 0791ms total)
T1F74 001:300 JLINK_IsHalted()  returns FALSE (0001ms, 0792ms total)
T1F74 001:303 JLINK_IsHalted()  returns FALSE (0000ms, 0791ms total)
T1F74 001:305 JLINK_IsHalted()  returns FALSE (0000ms, 0791ms total)
T1F74 001:308 JLINK_IsHalted()  returns TRUE (0002ms, 0793ms total)
T1F74 001:310 JLINK_ReadReg(R15 (PC))  returns 0x20000000 (0000ms, 0791ms total)
T1F74 001:310 JLINK_ClrBPEx(BPHandle = 0x0000000F)  returns 0x00 (0000ms, 0791ms total)
T1F74 001:310 JLINK_ReadReg(R0)  returns 0x00000000 (0001ms, 0792ms total)
T1F74 001:311 JLINK_WriteMem(0x200005B8, 0x0200 Bytes, ...) - Data: 2C 43 37 43 0A 98 63 05 E4 0A A0 EB 08 00 00 22 ... -- CPU_WriteMem(512 bytes @ 0x200005B8)  returns 0x200 (0004ms, 0796ms total)
T1F74 001:315 JLINK_WriteReg(R0, 0x10000A00)  returns 0x00 (0000ms, 0796ms total)
T1F74 001:315 JLINK_WriteReg(R1, 0x00000200)  returns 0x00 (0001ms, 0797ms total)
T1F74 001:316 JLINK_WriteReg(R2, 0x200005B8)  returns 0x00 (0000ms, 0797ms total)
T1F74 001:316 JLINK_WriteReg(R3, 0x00000000)  returns 0x00 (0000ms, 0797ms total)
T1F74 001:316 JLINK_WriteReg(R4, 0x00000000)  returns 0x00 (0001ms, 0798ms total)
T1F74 001:317 JLINK_WriteReg(R5, 0x00000000)  returns 0x00 (0000ms, 0798ms total)
T1F74 001:317 JLINK_WriteReg(R6, 0x00000000)  returns 0x00 (0000ms, 0798ms total)
T1F74 001:318 JLINK_WriteReg(R7, 0x00000000)  returns 0x00 (0000ms, 0798ms total)
T1F74 001:318 JLINK_WriteReg(R8, 0x00000000)  returns 0x00 (0000ms, 0798ms total)
T1F74 001:318 JLINK_WriteReg(R9, 0x20000588)  returns 0x00 (0000ms, 0798ms total)
T1F74 001:318 JLINK_WriteReg(R10, 0x00000000)  returns 0x00 (0001ms, 0799ms total)
T1F74 001:319 JLINK_WriteReg(R11, 0x00000000)  returns 0x00 (0000ms, 0799ms total)
T1F74 001:319 JLINK_WriteReg(R12, 0x00000000)  returns 0x00 (0000ms, 0799ms total)
T1F74 001:319 JLINK_WriteReg(R13 (SP), 0x20001000)  returns 0x00 (0001ms, 0800ms total)
T1F74 001:320 JLINK_WriteReg(R14, 0x20000001)  returns 0x00 (0000ms, 0800ms total)
T1F74 001:320 JLINK_WriteReg(R15 (PC), 0x200000D8)  returns 0x00 (0000ms, 0800ms total)
T1F74 001:320 JLINK_WriteReg(XPSR, 0x01000000)  returns 0x00 (0000ms, 0800ms total)
T1F74 001:321 JLINK_WriteReg(MSP, 0x20001000)  returns 0x00 (0000ms, 0801ms total)
T1F74 001:321 JLINK_WriteReg(PSP, 0x20001000)  returns 0x00 (0000ms, 0801ms total)
T1F74 001:321 JLINK_WriteReg(CFBP, 0x00000000)  returns 0x00 (0000ms, 0801ms total)
T1F74 001:321 JLINK_SetBPEx(Addr = 0x20000000, Type = 0xFFFFFFF2)  returns 0x00000010 (0001ms, 0802ms total)
T1F74 001:322 JLINK_Go() -- CPU_ReadMem(4 bytes @ 0xE0001000) (0002ms, 0804ms total)
T1F74 001:324 JLINK_IsHalted()  returns FALSE (0000ms, 0804ms total)
T1F74 001:332 JLINK_IsHalted()  returns TRUE (0002ms, 0806ms total)
T1F74 001:334 JLINK_ReadReg(R15 (PC))  returns 0x20000000 (0000ms, 0804ms total)
T1F74 001:334 JLINK_ClrBPEx(BPHandle = 0x00000010)  returns 0x00 (0000ms, 0804ms total)
T1F74 001:335 JLINK_ReadReg(R0)  returns 0x00000000 (0000ms, 0805ms total)
T1F74 001:336 JLINK_WriteMem(0x200005B8, 0x0200 Bytes, ...) - Data: 21 10 40 F8 24 10 64 1C 04 2C E9 DB 71 48 00 68 ... -- CPU_WriteMem(512 bytes @ 0x200005B8)  returns 0x200 (0004ms, 0809ms total)
T1F74 001:340 JLINK_WriteReg(R0, 0x10000C00)  returns 0x00 (0000ms, 0809ms total)
T1F74 001:340 JLINK_WriteReg(R1, 0x00000200)  returns 0x00 (0000ms, 0809ms total)
T1F74 001:341 JLINK_WriteReg(R2, 0x200005B8)  returns 0x00 (0000ms, 0809ms total)
T1F74 001:341 JLINK_WriteReg(R3, 0x00000000)  returns 0x00 (0000ms, 0809ms total)
T1F74 001:341 JLINK_WriteReg(R4, 0x00000000)  returns 0x00 (0000ms, 0809ms total)
T1F74 001:341 JLINK_WriteReg(R5, 0x00000000)  returns 0x00 (0001ms, 0810ms total)
T1F74 001:342 JLINK_WriteReg(R6, 0x00000000)  returns 0x00 (0000ms, 0810ms total)
T1F74 001:342 JLINK_WriteReg(R7, 0x00000000)  returns 0x00 (0000ms, 0810ms total)
T1F74 001:343 JLINK_WriteReg(R8, 0x00000000)  returns 0x00 (0000ms, 0811ms total)
T1F74 001:343 JLINK_WriteReg(R9, 0x20000588)  returns 0x00 (0000ms, 0811ms total)
